
T2558 000:114 SEGGER J-Link V6.16f Log File (0000ms, 0060ms total)
T2558 000:114 DLL Compiled: Jul  3 2017 15:57:26 (0000ms, 0060ms total)
T2558 000:114 Logging started @ 2017-07-10 11:37 (0000ms, 0060ms total)
T2558 000:114 JLINK_SetWarnOutHandler(...) (0000ms, 0060ms total)
T2558 000:114 JLINK_OpenEx(...)
Firmware: J-Link V9 compiled Jun 16 2017 16:15:10
Hardware: V9.40
S/N: 59400009
Feature(s): GDB, RDI, FlashBP, FlashDL, JFlashWEBSRV Webserver running on local port 19080 (0044ms, 0104ms total)
T2558 000:114   returns O.K. (0044ms, 0104ms total)
T2558 000:158 JLINK_SetErrorOutHandler(...) (0000ms, 0104ms total)
T2558 000:158 JLINK_ExecCommand("ProjectFile = "D:\工作\设计开发\信号机-L50T-U\基于NTCIP协议的智能信号控制机\003 设计\详细设计\MAU\源码\L50T-MAU\L50T-MAU\JLinkSettings.ini"", ...). C:\Program Files (x86)\SEGGER\JLink_V616f\JLinkDevices.xml evaluated successfully.Device "ARM9" selected.  returns 0x00 (0100ms, 0204ms total)
T2558 000:263 JLINK_ExecCommand("Device = STM32F103R8", ...). Device "STM32F103R8" selected.  returns 0x00 (0013ms, 0217ms total)
T2558 000:276 JLINK_ExecCommand("DisableConnectionTimeout", ...).   returns 0x01 (0000ms, 0217ms total)
T2558 000:276 JLINK_GetHardwareVersion()  returns 0x16F30 (0000ms, 0217ms total)
T2558 000:276 JLINK_GetDLLVersion()  returns 61606 (0000ms, 0217ms total)
T2558 000:276 JLINK_GetFirmwareString(...) (0000ms, 0217ms total)
T2558 000:285 JLINK_GetDLLVersion()  returns 61606 (0000ms, 0217ms total)
T2558 000:285 JLINK_GetCompileDateTime() (0000ms, 0217ms total)
T2558 000:286 JLINK_GetFirmwareString(...) (0000ms, 0217ms total)
T2558 000:288 JLINK_GetHardwareVersion()  returns 0x16F30 (0000ms, 0217ms total)
T2558 000:299 JLINK_TIF_Select(JLINKARM_TIF_SWD)  returns 0x00 (0001ms, 0218ms total)
T2558 000:300 JLINK_SetSpeed(20000) (0000ms, 0218ms total)
T2558 000:300 JLINK_GetId() >0x10B TIF> >0x10F TIF> >0x10B TIF> >0x10F TIF> >0x10B TIF>Found SW-DP with ID 0x1BA01477 >0x0D TIF> >0x28 TIF> >0x0D TIF> >0x28 TIF>SWD speed too high. Reduced from 12000 kHz to 8100 kHz for stability >0x0D TIF> >0x28 TIF> >0x0D TIF> >0x28 TIF> >0x0D TIF> >0x21 TIF> >0x0D TIF> >0x28 TIF> >0x0D TIF> >0x28 TIF> >0x0D TIF> >0x28 TIF> >0x0D TIF> >0x21 TIF> >0x0D TIF> >0x21 TIF> >0x0D TIF> >0x28 TIF> >0x0D TIF> >0x21 TIF> >0x0D TIF> >0x21 TIF> >0x0D TIF> >0x28 TIF> >0x0D TIF>
 >0x21 TIF> >0x0D TIF> >0x21 TIF> >0x0D TIF> >0x28 TIF> >0x0D TIF> >0x21 TIF> >0x0D TIF> >0x21 TIF> >0x0D TIF> >0x28 TIF> >0x0D TIF> >0x21 TIF> >0x0D TIF> >0x21 TIF> >0x0D TIF> >0x28 TIF> >0x0D TIF> >0x21 TIF> >0x0D TIF> >0x21 TIF> >0x0D TIF> >0x28 TIF> >0x0D TIF> >0x21 TIF> >0x0D TIF> >0x21 TIF> >0x10B TIF>Found SW-DP with ID 0x1BA01477 >0x0D TIF> >0x28 TIF> >0x0D TIF> >0x28 TIF> >0x0D TIF> >0x28 TIF> >0x0D TIF> >0x28 TIF> >0x0D TIF> >0x21 TIF> >0x0D TIF> >0x28 TIF>
Scanning APs, stopping at first AHB-AP found. >0x0D TIF> >0x28 TIF> >0x0D TIF> >0x21 TIF> >0x0D TIF> >0x21 TIF>AP[0] IDR: 0x14770011 (AHB-AP) >0x0D TIF> >0x28 TIF> >0x0D TIF> >0x21 TIF> >0x0D TIF> >0x21 TIF>AHB-AP ROM: 0xE00FF000 (Base addr. of first ROM table) >0x0D TIF> >0x28 TIF> >0x0D TIF> >0x28 TIF> >0x0D TIF> >0x28 TIF> >0x0D TIF> >0x21 TIF> >0x0D TIF> >0x21 TIF> >0x0D TIF> >0x28 TIF> >0x0D TIF> >0x21 TIF> >0x0D TIF> >0x21 TIF>CPUID reg: 0x411FC231. Implementer code: 0x41 (ARM)
Found Cortex-M3 r1p1, Little endian. -- CPU_ReadMem(4 bytes @ 0xE000EDF0) -- CPU_WriteMem(4 bytes @ 0xE000EDF0) -- CPU_ReadMem(4 bytes @ 0xE0002000)FPUnit: 6 code (BP) slots and 2 literal slots -- CPU_ReadMem(4 bytes @ 0xE000EDFC) -- CPU_WriteMem(4 bytes @ 0xE000EDFC) -- CPU_ReadMem(4 bytes @ 0xE0001000) -- CPU_WriteMem(4 bytes @ 0xE0001000) -- CPU_ReadMem(4 bytes @ 0xE000ED88) -- CPU_WriteMem(4 bytes @ 0xE000ED88) -- CPU_ReadMem(4 bytes @ 0xE000ED88) -- CPU_WriteMem(4 bytes @ 0xE000ED88)
CoreSight components:ROMTbl[0] @ E00FF000 -- CPU_ReadMem(16 bytes @ 0xE00FF000) -- CPU_ReadMem(16 bytes @ 0xE000EFF0) -- CPU_ReadMem(16 bytes @ 0xE000EFE0)ROMTbl[0][0]: E000E000, CID: B105E00D, PID: 001BB000 SCS -- CPU_ReadMem(16 bytes @ 0xE0001FF0) -- CPU_ReadMem(16 bytes @ 0xE0001FE0)ROMTbl[0][1]: E0001000, CID: B105E00D, PID: 001BB002 DWT -- CPU_ReadMem(16 bytes @ 0xE0002FF0) -- CPU_ReadMem(16 bytes @ 0xE0002FE0)ROMTbl[0][2]: E0002000, CID: B105E00D, PID: 000BB003 FPB
 -- CPU_ReadMem(16 bytes @ 0xE0000FF0) -- CPU_ReadMem(16 bytes @ 0xE0000FE0)ROMTbl[0][3]: E0000000, CID: B105E00D, PID: 001BB001 ITM -- CPU_ReadMem(16 bytes @ 0xE00FF010) -- CPU_ReadMem(16 bytes @ 0xE0040FF0) -- CPU_ReadMem(16 bytes @ 0xE0040FE0)ROMTbl[0][4]: E0040000, CID: B105900D, PID: 001BB923 TPIU-Lite >0x0D TIF> >0x21 TIF>  returns 0x1BA01477 (0325ms, 0543ms total)
T2558 000:625 JLINK_GetDLLVersion()  returns 61606 (0000ms, 0543ms total)
T2558 000:625 JLINK_CORE_GetFound()  returns 0x30000FF (0000ms, 0543ms total)
T2558 000:625 JLINK_GetDebugInfo(0x100 = JLINKARM_ROM_TABLE_ADDR_INDEX) -- Value=0xE00FF000  returns 0x00 (0000ms, 0543ms total)
T2558 000:626 JLINK_GetDebugInfo(0x100 = JLINKARM_ROM_TABLE_ADDR_INDEX) -- Value=0xE00FF000  returns 0x00 (0000ms, 0543ms total)
T2558 000:626 JLINK_GetDebugInfo(0x101 = JLINKARM_DEBUG_INFO_ETM_ADDR_INDEX) -- Value=0x00000000  returns 0x00 (0000ms, 0543ms total)
T2558 000:626 JLINK_ReadMem (0xE0041FF0, 0x0010 Bytes, ...) -- CPU_ReadMem(16 bytes @ 0xE0041FF0) - Data: 00 00 00 00 00 00 00 00 00 00 00 00 00 00 00 00  returns 0x00 (0000ms, 0543ms total)
T2558 000:626 JLINK_GetDebugInfo(0x102 = JLINKARM_DEBUG_INFO_MTB_ADDR_INDEX) -- Value=0x00000000  returns 0x00 (0000ms, 0543ms total)
T2558 000:626 JLINK_GetDebugInfo(0x103 = JLINKARM_DEBUG_INFO_TPIU_ADDR_INDEX) -- Value=0xE0040000  returns 0x00 (0000ms, 0543ms total)
T2558 000:626 JLINK_GetDebugInfo(0x104 = JLINKARM_DEBUG_INFO_ITM_ADDR_INDEX) -- Value=0xE0000000  returns 0x00 (0000ms, 0543ms total)
T2558 000:626 JLINK_GetDebugInfo(0x105 = JLINKARM_DEBUG_INFO_DWT_ADDR_INDEX) -- Value=0xE0001000  returns 0x00 (0000ms, 0543ms total)
T2558 000:626 JLINK_GetDebugInfo(0x106 = JLINKARM_DEBUG_INFO_FPB_ADDR_INDEX) -- Value=0xE0002000  returns 0x00 (0000ms, 0543ms total)
T2558 000:626 JLINK_GetDebugInfo(0x107 = JLINKARM_DEBUG_INFO_NVIC_ADDR_INDEX) -- Value=0xE000E000  returns 0x00 (0000ms, 0543ms total)
T2558 000:626 JLINK_GetDebugInfo(0x10C = JLINKARM_DEBUG_INFO_DBG_ADDR_INDEX) -- Value=0xE000EDF0  returns 0x00 (0000ms, 0543ms total)
T2558 000:626 JLINK_ReadMemU32(0xE000ED00, 0x0001 Items, ...) -- CPU_ReadMem(4 bytes @ 0xE000ED00) - Data: 31 C2 1F 41  returns 0x01 (0000ms, 0543ms total)
T2558 000:626 JLINK_SetResetType(JLINKARM_CM3_RESET_TYPE_NORMAL)  returns JLINKARM_CM3_RESET_TYPE_NORMAL (0004ms, 0547ms total)
T2558 000:630 JLINK_Reset() -- CPU is running -- CPU_WriteMem(4 bytes @ 0xE000EDF0) -- CPU is running -- CPU_WriteMem(4 bytes @ 0xE000EDFC)Reset: Halt core after reset via DEMCR.VC_CORERESET. >0x35 TIF>Reset: Reset device via AIRCR.SYSRESETREQ. -- CPU is running -- CPU_WriteMem(4 bytes @ 0xE000ED0C) >0x0D TIF> >0x28 TIF> -- CPU_ReadMem(4 bytes @ 0xE000EDF0) -- CPU_ReadMem(4 bytes @ 0xE000EDF0) -- CPU is running -- CPU_WriteMem(4 bytes @ 0xE000EDF0) -- CPU is running -- CPU_WriteMem(4 bytes @ 0xE000EDFC)
 -- CPU_ReadMem(4 bytes @ 0xE000EDF0) -- CPU_WriteMem(4 bytes @ 0xE0002000) -- CPU_ReadMem(4 bytes @ 0xE000EDFC) -- CPU_ReadMem(4 bytes @ 0xE0001000) (0071ms, 0618ms total)
T2558 000:701 JLINK_Halt()  returns 0x00 (0000ms, 0618ms total)
T2558 000:701 JLINK_IsHalted()  returns TRUE (0000ms, 0618ms total)
T2558 000:701 JLINK_ReadMemU32(0xE000EDF0, 0x0001 Items, ...) -- CPU_ReadMem(4 bytes @ 0xE000EDF0) - Data: 03 00 03 00  returns 0x01 (0001ms, 0619ms total)
T2558 000:702 JLINK_WriteU32(0xE000EDF0, 0xA05F0003) -- CPU_WriteMem(4 bytes @ 0xE000EDF0)  returns 0x00 (0000ms, 0619ms total)
T2558 000:702 JLINK_WriteU32(0xE000EDFC, 0x01000000) -- CPU_WriteMem(4 bytes @ 0xE000EDFC)  returns 0x00 (0000ms, 0619ms total)
T2558 000:722 JLINK_GetHWStatus(...)  returns 0x00 (0000ms, 0619ms total)
T2558 000:727 JLINK_GetNumBPUnits(Type = 0xFFFFFF00)  returns 0x06 (0000ms, 0619ms total)
T2558 000:727 JLINK_GetNumBPUnits(Type = 0xF0)  returns 0x2000 (0000ms, 0619ms total)
T2558 000:727 JLINK_GetNumWPUnits()  returns 0x04 (0000ms, 0619ms total)
T2558 000:745 JLINK_GetSpeed()  returns 0x1770 (0000ms, 0619ms total)
T2558 000:754 JLINK_ReadMemU32(0xE000E004, 0x0001 Items, ...) -- CPU_ReadMem(4 bytes @ 0xE000E004) - Data: 01 00 00 00  returns 0x01 (0000ms, 0619ms total)
T2558 000:754 JLINK_ReadMemU32(0xE000E004, 0x0001 Items, ...) -- CPU_ReadMem(4 bytes @ 0xE000E004) - Data: 01 00 00 00  returns 0x01 (0000ms, 0619ms total)
T2558 000:754 JLINK_WriteMem(0xE0001000, 0x001C Bytes, ...) - Data: 01 00 00 00 00 00 00 00 00 00 00 00 00 00 00 00 ... -- CPU_WriteMem(28 bytes @ 0xE0001000)  returns 0x1C (0001ms, 0620ms total)
T2558 000:755 JLINK_ReadMem (0xE0001000, 0x001C Bytes, ...) -- CPU_ReadMem(28 bytes @ 0xE0001000) - Data: 01 00 00 40 00 00 00 00 00 00 00 00 00 00 00 00 ...  returns 0x00 (0000ms, 0620ms total)
T2558 000:755 JLINK_Halt()  returns 0x00 (0000ms, 0620ms total)
T2558 000:755 JLINK_IsHalted()  returns TRUE (0000ms, 0620ms total)
T2558 000:759 JLINK_WriteMem(0x20000000, 0x0164 Bytes, ...) - Data: 00 BE 0A E0 0D 78 2D 06 68 40 08 24 40 00 00 D3 ... -- CPU_WriteMem(356 bytes @ 0x20000000)  returns 0x164 (0002ms, 0622ms total)
T2558 000:761 JLINK_WriteReg(R0, 0x08000000)  returns 0x00 (0000ms, 0622ms total)
T2558 000:761 JLINK_WriteReg(R1, 0x00B71B00)  returns 0x00 (0000ms, 0622ms total)
T2558 000:761 JLINK_WriteReg(R2, 0x00000001)  returns 0x00 (0000ms, 0622ms total)
T2558 000:761 JLINK_WriteReg(R3, 0x00000000)  returns 0x00 (0000ms, 0622ms total)
T2558 000:761 JLINK_WriteReg(R4, 0x00000000)  returns 0x00 (0000ms, 0622ms total)
T2558 000:761 JLINK_WriteReg(R5, 0x00000000)  returns 0x00 (0000ms, 0622ms total)
T2558 000:761 JLINK_WriteReg(R6, 0x00000000)  returns 0x00 (0000ms, 0622ms total)
T2558 000:761 JLINK_WriteReg(R7, 0x00000000)  returns 0x00 (0000ms, 0622ms total)
T2558 000:761 JLINK_WriteReg(R8, 0x00000000)  returns 0x00 (0000ms, 0622ms total)
T2558 000:761 JLINK_WriteReg(R9, 0x20000160)  returns 0x00 (0000ms, 0622ms total)
T2558 000:761 JLINK_WriteReg(R10, 0x00000000)  returns 0x00 (0000ms, 0622ms total)
T2558 000:761 JLINK_WriteReg(R11, 0x00000000)  returns 0x00 (0000ms, 0622ms total)
T2558 000:761 JLINK_WriteReg(R12, 0x00000000)  returns 0x00 (0000ms, 0622ms total)
T2558 000:761 JLINK_WriteReg(R13 (SP), 0x20000800)  returns 0x00 (0000ms, 0622ms total)
T2558 000:761 JLINK_WriteReg(R14, 0x20000001)  returns 0x00 (0000ms, 0622ms total)
T2558 000:761 JLINK_WriteReg(R15 (PC), 0x20000038)  returns 0x00 (0000ms, 0622ms total)
T2558 000:761 JLINK_WriteReg(XPSR, 0x01000000)  returns 0x00 (0000ms, 0622ms total)
T2558 000:761 JLINK_WriteReg(MSP, 0x20000800)  returns 0x00 (0000ms, 0622ms total)
T2558 000:761 JLINK_WriteReg(PSP, 0x20000800)  returns 0x00 (0000ms, 0622ms total)
T2558 000:761 JLINK_WriteReg(CFBP, 0x00000000)  returns 0x00 (0000ms, 0622ms total)
T2558 000:761 JLINK_SetBPEx(Addr = 0x20000000, Type = 0xFFFFFFF2) -- CPU_ReadMem(2 bytes @ 0x20000000)  returns 0x00000001 (0000ms, 0622ms total)
T2558 000:762 JLINK_Go() -- CPU_WriteMem(2 bytes @ 0x20000000) -- CPU_ReadMem(4 bytes @ 0xE0001000) -- CPU_WriteMem(4 bytes @ 0xE0002008) -- CPU_WriteMem(4 bytes @ 0xE000200C) -- CPU_WriteMem(4 bytes @ 0xE0002010) -- CPU_WriteMem(4 bytes @ 0xE0002014) -- CPU_WriteMem(4 bytes @ 0xE0002018) -- CPU_WriteMem(4 bytes @ 0xE000201C) -- CPU_WriteMem(4 bytes @ 0xE0001004) (0002ms, 0625ms total)
T2558 000:764 JLINK_IsHalted() -- CPU_ReadMem(2 bytes @ 0x20000000)  returns TRUE (0002ms, 0627ms total)
T2558 000:766 JLINK_ReadReg(R15 (PC))  returns 0x20000000 (0000ms, 0625ms total)
T2558 000:766 JLINK_ClrBPEx(BPHandle = 0x00000001)  returns 0x00 (0000ms, 0625ms total)
T2558 000:766 JLINK_ReadReg(R0)  returns 0x00000000 (0000ms, 0625ms total)
T2558 000:766 JLINK_WriteReg(R0, 0x08000000)  returns 0x00 (0000ms, 0625ms total)
T2558 000:766 JLINK_WriteReg(R1, 0x00B71B00)  returns 0x00 (0000ms, 0625ms total)
T2558 000:766 JLINK_WriteReg(R2, 0x00000001)  returns 0x00 (0000ms, 0625ms total)
T2558 000:766 JLINK_WriteReg(R3, 0x00000000)  returns 0x00 (0000ms, 0625ms total)
T2558 000:766 JLINK_WriteReg(R4, 0x00000000)  returns 0x00 (0000ms, 0625ms total)
T2558 000:766 JLINK_WriteReg(R5, 0x00000000)  returns 0x00 (0000ms, 0625ms total)
T2558 000:766 JLINK_WriteReg(R6, 0x00000000)  returns 0x00 (0000ms, 0625ms total)
T2558 000:766 JLINK_WriteReg(R7, 0x00000000)  returns 0x00 (0000ms, 0625ms total)
T2558 000:766 JLINK_WriteReg(R8, 0x00000000)  returns 0x00 (0000ms, 0625ms total)
T2558 000:766 JLINK_WriteReg(R9, 0x20000160)  returns 0x00 (0000ms, 0625ms total)
T2558 000:766 JLINK_WriteReg(R10, 0x00000000)  returns 0x00 (0000ms, 0625ms total)
T2558 000:766 JLINK_WriteReg(R11, 0x00000000)  returns 0x00 (0000ms, 0625ms total)
T2558 000:766 JLINK_WriteReg(R12, 0x00000000)  returns 0x00 (0000ms, 0625ms total)
T2558 000:766 JLINK_WriteReg(R13 (SP), 0x20000800)  returns 0x00 (0000ms, 0625ms total)
T2558 000:766 JLINK_WriteReg(R14, 0x20000001)  returns 0x00 (0000ms, 0625ms total)
T2558 000:766 JLINK_WriteReg(R15 (PC), 0x2000007C)  returns 0x00 (0000ms, 0625ms total)
T2558 000:766 JLINK_WriteReg(XPSR, 0x01000000)  returns 0x00 (0000ms, 0625ms total)
T2558 000:766 JLINK_WriteReg(MSP, 0x20000800)  returns 0x00 (0000ms, 0625ms total)
T2558 000:766 JLINK_WriteReg(PSP, 0x20000800)  returns 0x00 (0000ms, 0625ms total)
T2558 000:766 JLINK_WriteReg(CFBP, 0x00000000)  returns 0x00 (0000ms, 0625ms total)
T2558 000:766 JLINK_SetBPEx(Addr = 0x20000000, Type = 0xFFFFFFF2)  returns 0x00000002 (0000ms, 0625ms total)
T2558 000:766 JLINK_Go() -- CPU_ReadMem(4 bytes @ 0xE0001000) (0002ms, 0627ms total)
T2558 000:768 JLINK_IsHalted()  returns FALSE (0000ms, 0627ms total)
T2558 000:874 JLINK_IsHalted() -- CPU_ReadMem(2 bytes @ 0x20000000)  returns TRUE (0002ms, 0629ms total)
T2558 000:876 JLINK_ReadReg(R15 (PC))  returns 0x20000000 (0000ms, 0627ms total)
T2558 000:876 JLINK_ClrBPEx(BPHandle = 0x00000002)  returns 0x00 (0000ms, 0627ms total)
T2558 000:876 JLINK_ReadReg(R0)  returns 0x00000000 (0000ms, 0627ms total)
T2558 000:927 JLINK_WriteReg(R0, 0x00000001)  returns 0x00 (0000ms, 0627ms total)
T2558 000:927 JLINK_WriteReg(R1, 0x00B71B00)  returns 0x00 (0000ms, 0627ms total)
T2558 000:927 JLINK_WriteReg(R2, 0x00000001)  returns 0x00 (0000ms, 0627ms total)
T2558 000:927 JLINK_WriteReg(R3, 0x00000000)  returns 0x00 (0000ms, 0627ms total)
T2558 000:927 JLINK_WriteReg(R4, 0x00000000)  returns 0x00 (0000ms, 0627ms total)
T2558 000:927 JLINK_WriteReg(R5, 0x00000000)  returns 0x00 (0000ms, 0627ms total)
T2558 000:927 JLINK_WriteReg(R6, 0x00000000)  returns 0x00 (0000ms, 0627ms total)
T2558 000:927 JLINK_WriteReg(R7, 0x00000000)  returns 0x00 (0000ms, 0627ms total)
T2558 000:927 JLINK_WriteReg(R8, 0x00000000)  returns 0x00 (0000ms, 0627ms total)
T2558 000:927 JLINK_WriteReg(R9, 0x20000160)  returns 0x00 (0000ms, 0627ms total)
T2558 000:927 JLINK_WriteReg(R10, 0x00000000)  returns 0x00 (0000ms, 0627ms total)
T2558 000:927 JLINK_WriteReg(R11, 0x00000000)  returns 0x00 (0000ms, 0627ms total)
T2558 000:927 JLINK_WriteReg(R12, 0x00000000)  returns 0x00 (0000ms, 0627ms total)
T2558 000:927 JLINK_WriteReg(R13 (SP), 0x20000800)  returns 0x00 (0000ms, 0627ms total)
T2558 000:927 JLINK_WriteReg(R14, 0x20000001)  returns 0x00 (0000ms, 0627ms total)
T2558 000:927 JLINK_WriteReg(R15 (PC), 0x2000006A)  returns 0x00 (0000ms, 0627ms total)
T2558 000:927 JLINK_WriteReg(XPSR, 0x01000000)  returns 0x00 (0000ms, 0627ms total)
T2558 000:927 JLINK_WriteReg(MSP, 0x20000800)  returns 0x00 (0000ms, 0627ms total)
T2558 000:927 JLINK_WriteReg(PSP, 0x20000800)  returns 0x00 (0000ms, 0627ms total)
T2558 000:927 JLINK_WriteReg(CFBP, 0x00000000)  returns 0x00 (0000ms, 0627ms total)
T2558 000:927 JLINK_SetBPEx(Addr = 0x20000000, Type = 0xFFFFFFF2)  returns 0x00000003 (0000ms, 0627ms total)
T2558 000:927 JLINK_Go() -- CPU_ReadMem(4 bytes @ 0xE0001000) (0002ms, 0629ms total)
T2558 000:929 JLINK_IsHalted() -- CPU_ReadMem(2 bytes @ 0x20000000)  returns TRUE (0001ms, 0630ms total)
T2558 000:930 JLINK_ReadReg(R15 (PC))  returns 0x20000000 (0000ms, 0629ms total)
T2558 000:930 JLINK_ClrBPEx(BPHandle = 0x00000003)  returns 0x00 (0000ms, 0629ms total)
T2558 000:930 JLINK_ReadReg(R0)  returns 0x00000000 (0001ms, 0630ms total)
T2558 000:938 JLINK_WriteMem(0x20000000, 0x0164 Bytes, ...) - Data: 00 BE 0A E0 0D 78 2D 06 68 40 08 24 40 00 00 D3 ... -- CPU_WriteMem(356 bytes @ 0x20000000)  returns 0x164 (0002ms, 0632ms total)
T2558 000:940 JLINK_WriteReg(R0, 0x08000000)  returns 0x00 (0000ms, 0632ms total)
T2558 000:940 JLINK_WriteReg(R1, 0x00B71B00)  returns 0x00 (0000ms, 0632ms total)
T2558 000:940 JLINK_WriteReg(R2, 0x00000002)  returns 0x00 (0000ms, 0632ms total)
T2558 000:940 JLINK_WriteReg(R3, 0x00000000)  returns 0x00 (0000ms, 0632ms total)
T2558 000:940 JLINK_WriteReg(R4, 0x00000000)  returns 0x00 (0000ms, 0632ms total)
T2558 000:940 JLINK_WriteReg(R5, 0x00000000)  returns 0x00 (0000ms, 0632ms total)
T2558 000:940 JLINK_WriteReg(R6, 0x00000000)  returns 0x00 (0000ms, 0632ms total)
T2558 000:940 JLINK_WriteReg(R7, 0x00000000)  returns 0x00 (0000ms, 0632ms total)
T2558 000:940 JLINK_WriteReg(R8, 0x00000000)  returns 0x00 (0000ms, 0632ms total)
T2558 000:940 JLINK_WriteReg(R9, 0x20000160)  returns 0x00 (0000ms, 0632ms total)
T2558 000:940 JLINK_WriteReg(R10, 0x00000000)  returns 0x00 (0000ms, 0632ms total)
T2558 000:940 JLINK_WriteReg(R11, 0x00000000)  returns 0x00 (0000ms, 0632ms total)
T2558 000:940 JLINK_WriteReg(R12, 0x00000000)  returns 0x00 (0000ms, 0632ms total)
T2558 000:940 JLINK_WriteReg(R13 (SP), 0x20000800)  returns 0x00 (0000ms, 0632ms total)
T2558 000:940 JLINK_WriteReg(R14, 0x20000001)  returns 0x00 (0000ms, 0632ms total)
T2558 000:940 JLINK_WriteReg(R15 (PC), 0x20000038)  returns 0x00 (0000ms, 0632ms total)
T2558 000:940 JLINK_WriteReg(XPSR, 0x01000000)  returns 0x00 (0000ms, 0632ms total)
T2558 000:940 JLINK_WriteReg(MSP, 0x20000800)  returns 0x00 (0000ms, 0632ms total)
T2558 000:940 JLINK_WriteReg(PSP, 0x20000800)  returns 0x00 (0000ms, 0632ms total)
T2558 000:940 JLINK_WriteReg(CFBP, 0x00000000)  returns 0x00 (0000ms, 0632ms total)
T2558 000:940 JLINK_SetBPEx(Addr = 0x20000000, Type = 0xFFFFFFF2) -- CPU_ReadMem(2 bytes @ 0x20000000)  returns 0x00000004 (0000ms, 0632ms total)
T2558 000:940 JLINK_Go() -- CPU_WriteMem(2 bytes @ 0x20000000) -- CPU_ReadMem(4 bytes @ 0xE0001000) (0002ms, 0634ms total)
T2558 000:942 JLINK_IsHalted() -- CPU_ReadMem(2 bytes @ 0x20000000)  returns TRUE (0002ms, 0636ms total)
T2558 000:944 JLINK_ReadReg(R15 (PC))  returns 0x20000000 (0000ms, 0634ms total)
T2558 000:944 JLINK_ClrBPEx(BPHandle = 0x00000004)  returns 0x00 (0000ms, 0634ms total)
T2558 000:944 JLINK_ReadReg(R0)  returns 0x00000000 (0000ms, 0634ms total)
T2558 000:944 JLINK_WriteMem(0x20000164, 0x0400 Bytes, ...) - Data: 50 07 00 20 89 01 00 08 41 13 00 08 43 13 00 08 ... -- CPU_WriteMem(1024 bytes @ 0x20000164)  returns 0x400 (0004ms, 0638ms total)
T2558 000:948 JLINK_WriteReg(R0, 0x08000000)  returns 0x00 (0000ms, 0638ms total)
T2558 000:948 JLINK_WriteReg(R1, 0x00000400)  returns 0x00 (0000ms, 0638ms total)
T2558 000:948 JLINK_WriteReg(R2, 0x20000164)  returns 0x00 (0000ms, 0638ms total)
T2558 000:948 JLINK_WriteReg(R3, 0x00000000)  returns 0x00 (0000ms, 0638ms total)
T2558 000:948 JLINK_WriteReg(R4, 0x00000000)  returns 0x00 (0000ms, 0638ms total)
T2558 000:948 JLINK_WriteReg(R5, 0x00000000)  returns 0x00 (0000ms, 0638ms total)
T2558 000:948 JLINK_WriteReg(R6, 0x00000000)  returns 0x00 (0000ms, 0638ms total)
T2558 000:948 JLINK_WriteReg(R7, 0x00000000)  returns 0x00 (0000ms, 0638ms total)
T2558 000:948 JLINK_WriteReg(R8, 0x00000000)  returns 0x00 (0000ms, 0638ms total)
T2558 000:948 JLINK_WriteReg(R9, 0x20000160)  returns 0x00 (0000ms, 0638ms total)
T2558 000:948 JLINK_WriteReg(R10, 0x00000000)  returns 0x00 (0000ms, 0638ms total)
T2558 000:948 JLINK_WriteReg(R11, 0x00000000)  returns 0x00 (0000ms, 0638ms total)
T2558 000:948 JLINK_WriteReg(R12, 0x00000000)  returns 0x00 (0000ms, 0638ms total)
T2558 000:948 JLINK_WriteReg(R13 (SP), 0x20000800)  returns 0x00 (0000ms, 0638ms total)
T2558 000:948 JLINK_WriteReg(R14, 0x20000001)  returns 0x00 (0000ms, 0638ms total)
T2558 000:948 JLINK_WriteReg(R15 (PC), 0x200000F4)  returns 0x00 (0000ms, 0638ms total)
T2558 000:948 JLINK_WriteReg(XPSR, 0x01000000)  returns 0x00 (0000ms, 0638ms total)
T2558 000:948 JLINK_WriteReg(MSP, 0x20000800)  returns 0x00 (0000ms, 0638ms total)
T2558 000:948 JLINK_WriteReg(PSP, 0x20000800)  returns 0x00 (0000ms, 0638ms total)
T2558 000:948 JLINK_WriteReg(CFBP, 0x00000000)  returns 0x00 (0000ms, 0638ms total)
T2558 000:948 JLINK_SetBPEx(Addr = 0x20000000, Type = 0xFFFFFFF2)  returns 0x00000005 (0000ms, 0638ms total)
T2558 000:948 JLINK_Go() -- CPU_ReadMem(4 bytes @ 0xE0001000) (0002ms, 0640ms total)
T2558 000:950 JLINK_IsHalted()  returns FALSE (0000ms, 0640ms total)
T2558 000:962 JLINK_IsHalted()  returns FALSE (0000ms, 0640ms total)
T2558 000:974 JLINK_IsHalted()  returns FALSE (0000ms, 0640ms total)
T2558 000:976 JLINK_IsHalted()  returns FALSE (0000ms, 0640ms total)
T2558 000:978 JLINK_IsHalted()  returns FALSE (0000ms, 0640ms total)
T2558 000:980 JLINK_IsHalted()  returns FALSE (0000ms, 0640ms total)
T2558 000:982 JLINK_IsHalted() -- CPU_ReadMem(2 bytes @ 0x20000000)  returns TRUE (0001ms, 0641ms total)
T2558 000:983 JLINK_ReadReg(R15 (PC))  returns 0x20000000 (0000ms, 0640ms total)
T2558 000:983 JLINK_ClrBPEx(BPHandle = 0x00000005)  returns 0x00 (0000ms, 0640ms total)
T2558 000:983 JLINK_ReadReg(R0)  returns 0x00000000 (0000ms, 0640ms total)
T2558 000:984 JLINK_WriteMem(0x20000164, 0x0400 Bytes, ...) - Data: 9A FB 00 20 76 49 C8 70 01 20 08 71 00 20 48 71 ... -- CPU_WriteMem(1024 bytes @ 0x20000164)  returns 0x400 (0004ms, 0644ms total)
T2558 000:988 JLINK_WriteReg(R0, 0x08000400)  returns 0x00 (0000ms, 0644ms total)
T2558 000:988 JLINK_WriteReg(R1, 0x00000400)  returns 0x00 (0000ms, 0644ms total)
T2558 000:988 JLINK_WriteReg(R2, 0x20000164)  returns 0x00 (0000ms, 0644ms total)
T2558 000:988 JLINK_WriteReg(R3, 0x00000000)  returns 0x00 (0000ms, 0644ms total)
T2558 000:988 JLINK_WriteReg(R4, 0x00000000)  returns 0x00 (0000ms, 0644ms total)
T2558 000:988 JLINK_WriteReg(R5, 0x00000000)  returns 0x00 (0000ms, 0644ms total)
T2558 000:988 JLINK_WriteReg(R6, 0x00000000)  returns 0x00 (0000ms, 0644ms total)
T2558 000:988 JLINK_WriteReg(R7, 0x00000000)  returns 0x00 (0000ms, 0644ms total)
T2558 000:988 JLINK_WriteReg(R8, 0x00000000)  returns 0x00 (0000ms, 0644ms total)
T2558 000:988 JLINK_WriteReg(R9, 0x20000160)  returns 0x00 (0000ms, 0644ms total)
T2558 000:988 JLINK_WriteReg(R10, 0x00000000)  returns 0x00 (0000ms, 0644ms total)
T2558 000:988 JLINK_WriteReg(R11, 0x00000000)  returns 0x00 (0000ms, 0644ms total)
T2558 000:988 JLINK_WriteReg(R12, 0x00000000)  returns 0x00 (0000ms, 0644ms total)
T2558 000:988 JLINK_WriteReg(R13 (SP), 0x20000800)  returns 0x00 (0000ms, 0644ms total)
T2558 000:988 JLINK_WriteReg(R14, 0x20000001)  returns 0x00 (0000ms, 0644ms total)
T2558 000:988 JLINK_WriteReg(R15 (PC), 0x200000F4)  returns 0x00 (0000ms, 0644ms total)
T2558 000:988 JLINK_WriteReg(XPSR, 0x01000000)  returns 0x00 (0000ms, 0644ms total)
T2558 000:988 JLINK_WriteReg(MSP, 0x20000800)  returns 0x00 (0000ms, 0644ms total)
T2558 000:988 JLINK_WriteReg(PSP, 0x20000800)  returns 0x00 (0000ms, 0644ms total)
T2558 000:988 JLINK_WriteReg(CFBP, 0x00000000)  returns 0x00 (0000ms, 0644ms total)
T2558 000:988 JLINK_SetBPEx(Addr = 0x20000000, Type = 0xFFFFFFF2)  returns 0x00000006 (0000ms, 0644ms total)
T2558 000:988 JLINK_Go() -- CPU_ReadMem(4 bytes @ 0xE0001000) (0001ms, 0645ms total)
T2558 000:989 JLINK_IsHalted()  returns FALSE (0001ms, 0646ms total)
T2558 000:994 JLINK_IsHalted()  returns FALSE (0000ms, 0645ms total)
T2558 000:996 JLINK_IsHalted()  returns FALSE (0000ms, 0645ms total)
T2558 000:998 JLINK_IsHalted()  returns FALSE (0000ms, 0645ms total)
T2558 001:006 JLINK_IsHalted()  returns FALSE (0000ms, 0645ms total)
T2558 001:008 JLINK_IsHalted()  returns FALSE (0000ms, 0645ms total)
T2558 001:010 JLINK_IsHalted()  returns FALSE (0000ms, 0645ms total)
T2558 001:012 JLINK_IsHalted()  returns FALSE (0000ms, 0645ms total)
T2558 001:014 JLINK_IsHalted()  returns FALSE (0000ms, 0645ms total)
T2558 001:017 JLINK_IsHalted()  returns FALSE (0000ms, 0645ms total)
T2558 001:019 JLINK_IsHalted()  returns FALSE (0000ms, 0645ms total)
T2558 001:021 JLINK_IsHalted() -- CPU_ReadMem(2 bytes @ 0x20000000)  returns TRUE (0002ms, 0647ms total)
T2558 001:023 JLINK_ReadReg(R15 (PC))  returns 0x20000000 (0000ms, 0645ms total)
T2558 001:023 JLINK_ClrBPEx(BPHandle = 0x00000006)  returns 0x00 (0000ms, 0645ms total)
T2558 001:023 JLINK_ReadReg(R0)  returns 0x00000000 (0000ms, 0645ms total)
T2558 001:024 JLINK_WriteMem(0x20000164, 0x0400 Bytes, ...) - Data: 7B 48 03 F0 9A F9 01 20 77 49 88 73 06 E0 02 21 ... -- CPU_WriteMem(1024 bytes @ 0x20000164)  returns 0x400 (0004ms, 0649ms total)
T2558 001:028 JLINK_WriteReg(R0, 0x08000800)  returns 0x00 (0000ms, 0649ms total)
T2558 001:028 JLINK_WriteReg(R1, 0x00000400)  returns 0x00 (0000ms, 0649ms total)
T2558 001:028 JLINK_WriteReg(R2, 0x20000164)  returns 0x00 (0000ms, 0649ms total)
T2558 001:028 JLINK_WriteReg(R3, 0x00000000)  returns 0x00 (0000ms, 0649ms total)
T2558 001:028 JLINK_WriteReg(R4, 0x00000000)  returns 0x00 (0000ms, 0649ms total)
T2558 001:028 JLINK_WriteReg(R5, 0x00000000)  returns 0x00 (0000ms, 0649ms total)
T2558 001:028 JLINK_WriteReg(R6, 0x00000000)  returns 0x00 (0000ms, 0649ms total)
T2558 001:028 JLINK_WriteReg(R7, 0x00000000)  returns 0x00 (0000ms, 0649ms total)
T2558 001:028 JLINK_WriteReg(R8, 0x00000000)  returns 0x00 (0000ms, 0649ms total)
T2558 001:028 JLINK_WriteReg(R9, 0x20000160)  returns 0x00 (0000ms, 0649ms total)
T2558 001:028 JLINK_WriteReg(R10, 0x00000000)  returns 0x00 (0000ms, 0649ms total)
T2558 001:028 JLINK_WriteReg(R11, 0x00000000)  returns 0x00 (0000ms, 0649ms total)
T2558 001:028 JLINK_WriteReg(R12, 0x00000000)  returns 0x00 (0000ms, 0649ms total)
T2558 001:028 JLINK_WriteReg(R13 (SP), 0x20000800)  returns 0x00 (0000ms, 0649ms total)
T2558 001:028 JLINK_WriteReg(R14, 0x20000001)  returns 0x00 (0000ms, 0649ms total)
T2558 001:028 JLINK_WriteReg(R15 (PC), 0x200000F4)  returns 0x00 (0000ms, 0649ms total)
T2558 001:028 JLINK_WriteReg(XPSR, 0x01000000)  returns 0x00 (0000ms, 0649ms total)
T2558 001:028 JLINK_WriteReg(MSP, 0x20000800)  returns 0x00 (0000ms, 0649ms total)
T2558 001:028 JLINK_WriteReg(PSP, 0x20000800)  returns 0x00 (0000ms, 0649ms total)
T2558 001:028 JLINK_WriteReg(CFBP, 0x00000000)  returns 0x00 (0000ms, 0649ms total)
T2558 001:028 JLINK_SetBPEx(Addr = 0x20000000, Type = 0xFFFFFFF2)  returns 0x00000007 (0000ms, 0649ms total)
T2558 001:028 JLINK_Go() -- CPU_ReadMem(4 bytes @ 0xE0001000) (0001ms, 0650ms total)
T2558 001:029 JLINK_IsHalted()  returns FALSE (0001ms, 0651ms total)
T2558 001:047 JLINK_IsHalted()  returns FALSE (0000ms, 0650ms total)
T2558 001:049 JLINK_IsHalted()  returns FALSE (0000ms, 0650ms total)
T2558 001:052 JLINK_IsHalted()  returns FALSE (0000ms, 0650ms total)
T2558 001:055 JLINK_IsHalted()  returns FALSE (0000ms, 0650ms total)
T2558 001:057 JLINK_IsHalted()  returns FALSE (0000ms, 0650ms total)
T2558 001:058 JLINK_IsHalted()  returns FALSE (0000ms, 0650ms total)
T2558 001:069 JLINK_IsHalted() -- CPU_ReadMem(2 bytes @ 0x20000000)  returns TRUE (0003ms, 0653ms total)
T2558 001:072 JLINK_ReadReg(R15 (PC))  returns 0x20000000 (0000ms, 0650ms total)
T2558 001:072 JLINK_ClrBPEx(BPHandle = 0x00000007)  returns 0x00 (0000ms, 0650ms total)
T2558 001:072 JLINK_ReadReg(R0)  returns 0x00000000 (0000ms, 0650ms total)
T2558 001:072 JLINK_WriteMem(0x20000164, 0x0400 Bytes, ...) - Data: 02 F0 9B FF 40 21 76 48 02 F0 97 FF 80 21 74 48 ... -- CPU_WriteMem(1024 bytes @ 0x20000164)  returns 0x400 (0003ms, 0653ms total)
T2558 001:075 JLINK_WriteReg(R0, 0x08000C00)  returns 0x00 (0000ms, 0653ms total)
T2558 001:075 JLINK_WriteReg(R1, 0x00000400)  returns 0x00 (0000ms, 0653ms total)
T2558 001:075 JLINK_WriteReg(R2, 0x20000164)  returns 0x00 (0000ms, 0653ms total)
T2558 001:075 JLINK_WriteReg(R3, 0x00000000)  returns 0x00 (0000ms, 0653ms total)
T2558 001:075 JLINK_WriteReg(R4, 0x00000000)  returns 0x00 (0000ms, 0653ms total)
T2558 001:075 JLINK_WriteReg(R5, 0x00000000)  returns 0x00 (0000ms, 0653ms total)
T2558 001:075 JLINK_WriteReg(R6, 0x00000000)  returns 0x00 (0000ms, 0653ms total)
T2558 001:075 JLINK_WriteReg(R7, 0x00000000)  returns 0x00 (0000ms, 0653ms total)
T2558 001:075 JLINK_WriteReg(R8, 0x00000000)  returns 0x00 (0000ms, 0653ms total)
T2558 001:075 JLINK_WriteReg(R9, 0x20000160)  returns 0x00 (0000ms, 0653ms total)
T2558 001:075 JLINK_WriteReg(R10, 0x00000000)  returns 0x00 (0000ms, 0653ms total)
T2558 001:075 JLINK_WriteReg(R11, 0x00000000)  returns 0x00 (0000ms, 0653ms total)
T2558 001:075 JLINK_WriteReg(R12, 0x00000000)  returns 0x00 (0000ms, 0653ms total)
T2558 001:075 JLINK_WriteReg(R13 (SP), 0x20000800)  returns 0x00 (0000ms, 0653ms total)
T2558 001:075 JLINK_WriteReg(R14, 0x20000001)  returns 0x00 (0000ms, 0653ms total)
T2558 001:075 JLINK_WriteReg(R15 (PC), 0x200000F4)  returns 0x00 (0000ms, 0653ms total)
T2558 001:075 JLINK_WriteReg(XPSR, 0x01000000)  returns 0x00 (0000ms, 0653ms total)
T2558 001:075 JLINK_WriteReg(MSP, 0x20000800)  returns 0x00 (0000ms, 0653ms total)
T2558 001:075 JLINK_WriteReg(PSP, 0x20000800)  returns 0x00 (0000ms, 0653ms total)
T2558 001:075 JLINK_WriteReg(CFBP, 0x00000000)  returns 0x00 (0000ms, 0653ms total)
T2558 001:075 JLINK_SetBPEx(Addr = 0x20000000, Type = 0xFFFFFFF2)  returns 0x00000008 (0000ms, 0653ms total)
T2558 001:075 JLINK_Go() -- CPU_ReadMem(4 bytes @ 0xE0001000) (0002ms, 0655ms total)
T2558 001:077 JLINK_IsHalted()  returns FALSE (0000ms, 0655ms total)
T2558 001:079 JLINK_IsHalted()  returns FALSE (0000ms, 0655ms total)
T2558 001:081 JLINK_IsHalted()  returns FALSE (0000ms, 0655ms total)
T2558 001:088 JLINK_IsHalted()  returns FALSE (0000ms, 0655ms total)
T2558 001:090 JLINK_IsHalted()  returns FALSE (0000ms, 0655ms total)
T2558 001:092 JLINK_IsHalted()  returns FALSE (0000ms, 0655ms total)
T2558 001:097 JLINK_IsHalted()  returns FALSE (0000ms, 0655ms total)
T2558 001:099 JLINK_IsHalted()  returns FALSE (0000ms, 0655ms total)
T2558 001:101 JLINK_IsHalted()  returns FALSE (0001ms, 0656ms total)
T2558 001:103 JLINK_IsHalted()  returns FALSE (0000ms, 0655ms total)
T2558 001:105 JLINK_IsHalted()  returns FALSE (0000ms, 0655ms total)
T2558 001:107 JLINK_IsHalted()  returns FALSE (0000ms, 0655ms total)
T2558 001:109 JLINK_IsHalted() -- CPU_ReadMem(2 bytes @ 0x20000000)  returns TRUE (0002ms, 0657ms total)
T2558 001:111 JLINK_ReadReg(R15 (PC))  returns 0x20000000 (0000ms, 0655ms total)
T2558 001:111 JLINK_ClrBPEx(BPHandle = 0x00000008)  returns 0x00 (0000ms, 0655ms total)
T2558 001:111 JLINK_ReadReg(R0)  returns 0x00000000 (0000ms, 0655ms total)
T2558 001:112 JLINK_WriteMem(0x20000164, 0x0400 Bytes, ...) - Data: 80 FD 81 49 48 71 4F F4 00 71 80 48 02 F0 79 FD ... -- CPU_WriteMem(1024 bytes @ 0x20000164)  returns 0x400 (0003ms, 0658ms total)
T2558 001:115 JLINK_WriteReg(R0, 0x08001000)  returns 0x00 (0000ms, 0658ms total)
T2558 001:115 JLINK_WriteReg(R1, 0x00000400)  returns 0x00 (0000ms, 0658ms total)
T2558 001:115 JLINK_WriteReg(R2, 0x20000164)  returns 0x00 (0000ms, 0658ms total)
T2558 001:115 JLINK_WriteReg(R3, 0x00000000)  returns 0x00 (0000ms, 0658ms total)
T2558 001:115 JLINK_WriteReg(R4, 0x00000000)  returns 0x00 (0000ms, 0658ms total)
T2558 001:115 JLINK_WriteReg(R5, 0x00000000)  returns 0x00 (0000ms, 0658ms total)
T2558 001:115 JLINK_WriteReg(R6, 0x00000000)  returns 0x00 (0000ms, 0658ms total)
T2558 001:115 JLINK_WriteReg(R7, 0x00000000)  returns 0x00 (0000ms, 0658ms total)
T2558 001:115 JLINK_WriteReg(R8, 0x00000000)  returns 0x00 (0000ms, 0658ms total)
T2558 001:115 JLINK_WriteReg(R9, 0x20000160)  returns 0x00 (0000ms, 0658ms total)
T2558 001:115 JLINK_WriteReg(R10, 0x00000000)  returns 0x00 (0000ms, 0658ms total)
T2558 001:115 JLINK_WriteReg(R11, 0x00000000)  returns 0x00 (0000ms, 0658ms total)
T2558 001:115 JLINK_WriteReg(R12, 0x00000000)  returns 0x00 (0000ms, 0658ms total)
T2558 001:115 JLINK_WriteReg(R13 (SP), 0x20000800)  returns 0x00 (0000ms, 0658ms total)
T2558 001:115 JLINK_WriteReg(R14, 0x20000001)  returns 0x00 (0000ms, 0658ms total)
T2558 001:115 JLINK_WriteReg(R15 (PC), 0x200000F4)  returns 0x00 (0000ms, 0658ms total)
T2558 001:115 JLINK_WriteReg(XPSR, 0x01000000)  returns 0x00 (0000ms, 0658ms total)
T2558 001:115 JLINK_WriteReg(MSP, 0x20000800)  returns 0x00 (0000ms, 0658ms total)
T2558 001:115 JLINK_WriteReg(PSP, 0x20000800)  returns 0x00 (0000ms, 0658ms total)
T2558 001:115 JLINK_WriteReg(CFBP, 0x00000000)  returns 0x00 (0000ms, 0658ms total)
T2558 001:115 JLINK_SetBPEx(Addr = 0x20000000, Type = 0xFFFFFFF2)  returns 0x00000009 (0000ms, 0658ms total)
T2558 001:116 JLINK_Go() -- CPU_ReadMem(4 bytes @ 0xE0001000) (0001ms, 0659ms total)
T2558 001:117 JLINK_IsHalted()  returns FALSE (0000ms, 0659ms total)
T2558 001:120 JLINK_IsHalted()  returns FALSE (0000ms, 0659ms total)
T2558 001:122 JLINK_IsHalted()  returns FALSE (0000ms, 0659ms total)
T2558 001:124 JLINK_IsHalted()  returns FALSE (0000ms, 0659ms total)
T2558 001:128 JLINK_IsHalted()  returns FALSE (0000ms, 0659ms total)
T2558 001:130 JLINK_IsHalted()  returns FALSE (0000ms, 0659ms total)
T2558 001:132 JLINK_IsHalted()  returns FALSE (0000ms, 0659ms total)
T2558 001:134 JLINK_IsHalted()  returns FALSE (0000ms, 0659ms total)
T2558 001:136 JLINK_IsHalted()  returns FALSE (0000ms, 0659ms total)
T2558 001:140 JLINK_IsHalted()  returns FALSE (0000ms, 0659ms total)
T2558 001:146 JLINK_IsHalted()  returns FALSE (0000ms, 0659ms total)
T2558 001:148 JLINK_IsHalted() -- CPU_ReadMem(2 bytes @ 0x20000000)  returns TRUE (0001ms, 0660ms total)
T2558 001:149 JLINK_ReadReg(R15 (PC))  returns 0x20000000 (0000ms, 0659ms total)
T2558 001:149 JLINK_ClrBPEx(BPHandle = 0x00000009)  returns 0x00 (0001ms, 0660ms total)
T2558 001:150 JLINK_ReadReg(R0)  returns 0x00000000 (0000ms, 0660ms total)
T2558 001:151 JLINK_WriteMem(0x20000164, 0x0400 Bytes, ...) - Data: D0 49 08 80 09 E0 1A 20 CE 49 08 80 05 E0 40 F2 ... -- CPU_WriteMem(1024 bytes @ 0x20000164)  returns 0x400 (0003ms, 0663ms total)
T2558 001:154 JLINK_WriteReg(R0, 0x08001400)  returns 0x00 (0000ms, 0663ms total)
T2558 001:154 JLINK_WriteReg(R1, 0x00000400)  returns 0x00 (0000ms, 0663ms total)
T2558 001:154 JLINK_WriteReg(R2, 0x20000164)  returns 0x00 (0000ms, 0663ms total)
T2558 001:154 JLINK_WriteReg(R3, 0x00000000)  returns 0x00 (0000ms, 0663ms total)
T2558 001:154 JLINK_WriteReg(R4, 0x00000000)  returns 0x00 (0000ms, 0663ms total)
T2558 001:154 JLINK_WriteReg(R5, 0x00000000)  returns 0x00 (0000ms, 0663ms total)
T2558 001:154 JLINK_WriteReg(R6, 0x00000000)  returns 0x00 (0000ms, 0663ms total)
T2558 001:154 JLINK_WriteReg(R7, 0x00000000)  returns 0x00 (0000ms, 0663ms total)
T2558 001:154 JLINK_WriteReg(R8, 0x00000000)  returns 0x00 (0000ms, 0663ms total)
T2558 001:154 JLINK_WriteReg(R9, 0x20000160)  returns 0x00 (0000ms, 0663ms total)
T2558 001:154 JLINK_WriteReg(R10, 0x00000000)  returns 0x00 (0000ms, 0663ms total)
T2558 001:154 JLINK_WriteReg(R11, 0x00000000)  returns 0x00 (0001ms, 0664ms total)
T2558 001:155 JLINK_WriteReg(R12, 0x00000000)  returns 0x00 (0000ms, 0664ms total)
T2558 001:155 JLINK_WriteReg(R13 (SP), 0x20000800)  returns 0x00 (0000ms, 0664ms total)
T2558 001:155 JLINK_WriteReg(R14, 0x20000001)  returns 0x00 (0000ms, 0664ms total)
T2558 001:155 JLINK_WriteReg(R15 (PC), 0x200000F4)  returns 0x00 (0000ms, 0664ms total)
T2558 001:155 JLINK_WriteReg(XPSR, 0x01000000)  returns 0x00 (0000ms, 0664ms total)
T2558 001:155 JLINK_WriteReg(MSP, 0x20000800)  returns 0x00 (0000ms, 0664ms total)
T2558 001:155 JLINK_WriteReg(PSP, 0x20000800)  returns 0x00 (0000ms, 0664ms total)
T2558 001:155 JLINK_WriteReg(CFBP, 0x00000000)  returns 0x00 (0000ms, 0664ms total)
T2558 001:155 JLINK_SetBPEx(Addr = 0x20000000, Type = 0xFFFFFFF2)  returns 0x0000000A (0000ms, 0664ms total)
T2558 001:155 JLINK_Go() -- CPU_ReadMem(4 bytes @ 0xE0001000) (0001ms, 0665ms total)
T2558 001:156 JLINK_IsHalted()  returns FALSE (0000ms, 0665ms total)
T2558 001:160 JLINK_IsHalted()  returns FALSE (0000ms, 0665ms total)
T2558 001:162 JLINK_IsHalted()  returns FALSE (0000ms, 0665ms total)
T2558 001:164 JLINK_IsHalted()  returns FALSE (0000ms, 0665ms total)
T2558 001:166 JLINK_IsHalted()  returns FALSE (0000ms, 0665ms total)
T2558 001:168 JLINK_IsHalted()  returns FALSE (0000ms, 0665ms total)
T2558 001:176 JLINK_IsHalted() -- CPU_ReadMem(2 bytes @ 0x20000000)  returns TRUE (0031ms, 0696ms total)
T2558 001:207 JLINK_ReadReg(R15 (PC))  returns 0x20000000 (0000ms, 0665ms total)
T2558 001:207 JLINK_ClrBPEx(BPHandle = 0x0000000A)  returns 0x00 (0000ms, 0665ms total)
T2558 001:207 JLINK_ReadReg(R0)  returns 0x00000000 (0000ms, 0665ms total)
T2558 001:208 JLINK_WriteMem(0x20000164, 0x0400 Bytes, ...) - Data: 0E 00 00 28 04 DD 9D F8 0E 10 01 A8 FF F7 4A FF ... -- CPU_WriteMem(1024 bytes @ 0x20000164)  returns 0x400 (0004ms, 0669ms total)
T2558 001:212 JLINK_WriteReg(R0, 0x08001800)  returns 0x00 (0000ms, 0669ms total)
T2558 001:212 JLINK_WriteReg(R1, 0x00000400)  returns 0x00 (0000ms, 0669ms total)
T2558 001:212 JLINK_WriteReg(R2, 0x20000164)  returns 0x00 (0000ms, 0669ms total)
T2558 001:212 JLINK_WriteReg(R3, 0x00000000)  returns 0x00 (0000ms, 0669ms total)
T2558 001:212 JLINK_WriteReg(R4, 0x00000000)  returns 0x00 (0000ms, 0669ms total)
T2558 001:212 JLINK_WriteReg(R5, 0x00000000)  returns 0x00 (0000ms, 0669ms total)
T2558 001:212 JLINK_WriteReg(R6, 0x00000000)  returns 0x00 (0000ms, 0669ms total)
T2558 001:212 JLINK_WriteReg(R7, 0x00000000)  returns 0x00 (0000ms, 0669ms total)
T2558 001:212 JLINK_WriteReg(R8, 0x00000000)  returns 0x00 (0000ms, 0669ms total)
T2558 001:212 JLINK_WriteReg(R9, 0x20000160)  returns 0x00 (0000ms, 0669ms total)
T2558 001:212 JLINK_WriteReg(R10, 0x00000000)  returns 0x00 (0000ms, 0669ms total)
T2558 001:212 JLINK_WriteReg(R11, 0x00000000)  returns 0x00 (0000ms, 0669ms total)
T2558 001:212 JLINK_WriteReg(R12, 0x00000000)  returns 0x00 (0000ms, 0669ms total)
T2558 001:212 JLINK_WriteReg(R13 (SP), 0x20000800)  returns 0x00 (0000ms, 0669ms total)
T2558 001:212 JLINK_WriteReg(R14, 0x20000001)  returns 0x00 (0000ms, 0669ms total)
T2558 001:212 JLINK_WriteReg(R15 (PC), 0x200000F4)  returns 0x00 (0000ms, 0669ms total)
T2558 001:212 JLINK_WriteReg(XPSR, 0x01000000)  returns 0x00 (0000ms, 0669ms total)
T2558 001:212 JLINK_WriteReg(MSP, 0x20000800)  returns 0x00 (0000ms, 0669ms total)
T2558 001:212 JLINK_WriteReg(PSP, 0x20000800)  returns 0x00 (0000ms, 0669ms total)
T2558 001:212 JLINK_WriteReg(CFBP, 0x00000000)  returns 0x00 (0000ms, 0669ms total)
T2558 001:212 JLINK_SetBPEx(Addr = 0x20000000, Type = 0xFFFFFFF2)  returns 0x0000000B (0000ms, 0669ms total)
T2558 001:212 JLINK_Go() -- CPU_ReadMem(4 bytes @ 0xE0001000) (0001ms, 0670ms total)
T2558 001:213 JLINK_IsHalted()  returns FALSE (0000ms, 0670ms total)
T2558 001:224 JLINK_IsHalted()  returns FALSE (0000ms, 0670ms total)
T2558 001:226 JLINK_IsHalted()  returns FALSE (0000ms, 0670ms total)
T2558 001:228 JLINK_IsHalted()  returns FALSE (0000ms, 0670ms total)
T2558 001:233 JLINK_IsHalted()  returns FALSE (0000ms, 0670ms total)
T2558 001:234 JLINK_IsHalted()  returns FALSE (0000ms, 0670ms total)
T2558 001:236 JLINK_IsHalted()  returns FALSE (0000ms, 0670ms total)
T2558 001:238 JLINK_IsHalted()  returns FALSE (0000ms, 0670ms total)
T2558 001:240 JLINK_IsHalted()  returns FALSE (0000ms, 0670ms total)
T2558 001:242 JLINK_IsHalted()  returns FALSE (0000ms, 0670ms total)
T2558 001:248 JLINK_IsHalted() -- CPU_ReadMem(2 bytes @ 0x20000000)  returns TRUE (0001ms, 0671ms total)
T2558 001:249 JLINK_ReadReg(R15 (PC))  returns 0x20000000 (0001ms, 0671ms total)
T2558 001:250 JLINK_ClrBPEx(BPHandle = 0x0000000B)  returns 0x00 (0000ms, 0671ms total)
T2558 001:250 JLINK_ReadReg(R0)  returns 0x00000000 (0000ms, 0671ms total)
T2558 001:251 JLINK_WriteMem(0x20000164, 0x0400 Bytes, ...) - Data: 27 48 40 7A 28 B1 4F F4 80 41 23 48 01 F0 95 FF ... -- CPU_WriteMem(1024 bytes @ 0x20000164)  returns 0x400 (0003ms, 0674ms total)
T2558 001:254 JLINK_WriteReg(R0, 0x08001C00)  returns 0x00 (0000ms, 0674ms total)
T2558 001:254 JLINK_WriteReg(R1, 0x00000400)  returns 0x00 (0000ms, 0674ms total)
T2558 001:254 JLINK_WriteReg(R2, 0x20000164)  returns 0x00 (0000ms, 0674ms total)
T2558 001:254 JLINK_WriteReg(R3, 0x00000000)  returns 0x00 (0000ms, 0674ms total)
T2558 001:254 JLINK_WriteReg(R4, 0x00000000)  returns 0x00 (0000ms, 0674ms total)
T2558 001:254 JLINK_WriteReg(R5, 0x00000000)  returns 0x00 (0000ms, 0674ms total)
T2558 001:254 JLINK_WriteReg(R6, 0x00000000)  returns 0x00 (0000ms, 0674ms total)
T2558 001:254 JLINK_WriteReg(R7, 0x00000000)  returns 0x00 (0001ms, 0675ms total)
T2558 001:255 JLINK_WriteReg(R8, 0x00000000)  returns 0x00 (0000ms, 0675ms total)
T2558 001:255 JLINK_WriteReg(R9, 0x20000160)  returns 0x00 (0000ms, 0675ms total)
T2558 001:255 JLINK_WriteReg(R10, 0x00000000)  returns 0x00 (0000ms, 0675ms total)
T2558 001:255 JLINK_WriteReg(R11, 0x00000000)  returns 0x00 (0000ms, 0675ms total)
T2558 001:255 JLINK_WriteReg(R12, 0x00000000)  returns 0x00 (0000ms, 0675ms total)
T2558 001:255 JLINK_WriteReg(R13 (SP), 0x20000800)  returns 0x00 (0000ms, 0675ms total)
T2558 001:255 JLINK_WriteReg(R14, 0x20000001)  returns 0x00 (0000ms, 0675ms total)
T2558 001:255 JLINK_WriteReg(R15 (PC), 0x200000F4)  returns 0x00 (0000ms, 0675ms total)
T2558 001:255 JLINK_WriteReg(XPSR, 0x01000000)  returns 0x00 (0000ms, 0675ms total)
T2558 001:255 JLINK_WriteReg(MSP, 0x20000800)  returns 0x00 (0000ms, 0675ms total)
T2558 001:255 JLINK_WriteReg(PSP, 0x20000800)  returns 0x00 (0000ms, 0675ms total)
T2558 001:255 JLINK_WriteReg(CFBP, 0x00000000)  returns 0x00 (0000ms, 0675ms total)
T2558 001:255 JLINK_SetBPEx(Addr = 0x20000000, Type = 0xFFFFFFF2)  returns 0x0000000C (0000ms, 0675ms total)
T2558 001:255 JLINK_Go() -- CPU_ReadMem(4 bytes @ 0xE0001000) (0002ms, 0677ms total)
T2558 001:257 JLINK_IsHalted()  returns FALSE (0000ms, 0677ms total)
T2558 001:260 JLINK_IsHalted()  returns FALSE (0000ms, 0677ms total)
T2558 001:267 JLINK_IsHalted()  returns FALSE (0000ms, 0677ms total)
T2558 001:269 JLINK_IsHalted()  returns FALSE (0000ms, 0677ms total)
T2558 001:271 JLINK_IsHalted()  returns FALSE (0000ms, 0677ms total)
T2558 001:273 JLINK_IsHalted()  returns FALSE (0000ms, 0677ms total)
T2558 001:275 JLINK_IsHalted()  returns FALSE (0000ms, 0677ms total)
T2558 001:277 JLINK_IsHalted()  returns FALSE (0000ms, 0677ms total)
T2558 001:279 JLINK_IsHalted()  returns FALSE (0000ms, 0677ms total)
T2558 001:281 JLINK_IsHalted()  returns FALSE (0000ms, 0677ms total)
T2558 001:283 JLINK_IsHalted()  returns FALSE (0000ms, 0677ms total)
T2558 001:285 JLINK_IsHalted()  returns FALSE (0000ms, 0677ms total)
T2558 001:287 JLINK_IsHalted()  returns FALSE (0000ms, 0677ms total)
T2558 001:289 JLINK_IsHalted() -- CPU_ReadMem(2 bytes @ 0x20000000)  returns TRUE (0002ms, 0679ms total)
T2558 001:291 JLINK_ReadReg(R15 (PC))  returns 0x20000000 (0000ms, 0677ms total)
T2558 001:291 JLINK_ClrBPEx(BPHandle = 0x0000000C)  returns 0x00 (0000ms, 0677ms total)
T2558 001:291 JLINK_ReadReg(R0)  returns 0x00000000 (0000ms, 0677ms total)
T2558 001:293 JLINK_WriteMem(0x20000164, 0x0400 Bytes, ...) - Data: 4E D0 4F 48 00 78 00 28 4B D0 00 20 44 49 08 70 ... -- CPU_WriteMem(1024 bytes @ 0x20000164)  returns 0x400 (0004ms, 0681ms total)
T2558 001:297 JLINK_WriteReg(R0, 0x08002000)  returns 0x00 (0000ms, 0681ms total)
T2558 001:297 JLINK_WriteReg(R1, 0x00000400)  returns 0x00 (0000ms, 0681ms total)
T2558 001:297 JLINK_WriteReg(R2, 0x20000164)  returns 0x00 (0000ms, 0681ms total)
T2558 001:297 JLINK_WriteReg(R3, 0x00000000)  returns 0x00 (0000ms, 0681ms total)
T2558 001:297 JLINK_WriteReg(R4, 0x00000000)  returns 0x00 (0000ms, 0681ms total)
T2558 001:297 JLINK_WriteReg(R5, 0x00000000)  returns 0x00 (0000ms, 0681ms total)
T2558 001:297 JLINK_WriteReg(R6, 0x00000000)  returns 0x00 (0000ms, 0681ms total)
T2558 001:297 JLINK_WriteReg(R7, 0x00000000)  returns 0x00 (0000ms, 0681ms total)
T2558 001:297 JLINK_WriteReg(R8, 0x00000000)  returns 0x00 (0000ms, 0681ms total)
T2558 001:297 JLINK_WriteReg(R9, 0x20000160)  returns 0x00 (0000ms, 0681ms total)
T2558 001:297 JLINK_WriteReg(R10, 0x00000000)  returns 0x00 (0000ms, 0681ms total)
T2558 001:297 JLINK_WriteReg(R11, 0x00000000)  returns 0x00 (0000ms, 0681ms total)
T2558 001:297 JLINK_WriteReg(R12, 0x00000000)  returns 0x00 (0000ms, 0681ms total)
T2558 001:297 JLINK_WriteReg(R13 (SP), 0x20000800)  returns 0x00 (0000ms, 0681ms total)
T2558 001:297 JLINK_WriteReg(R14, 0x20000001)  returns 0x00 (0000ms, 0681ms total)
T2558 001:297 JLINK_WriteReg(R15 (PC), 0x200000F4)  returns 0x00 (0000ms, 0681ms total)
T2558 001:297 JLINK_WriteReg(XPSR, 0x01000000)  returns 0x00 (0000ms, 0681ms total)
T2558 001:297 JLINK_WriteReg(MSP, 0x20000800)  returns 0x00 (0000ms, 0681ms total)
T2558 001:297 JLINK_WriteReg(PSP, 0x20000800)  returns 0x00 (0000ms, 0681ms total)
T2558 001:297 JLINK_WriteReg(CFBP, 0x00000000)  returns 0x00 (0000ms, 0681ms total)
T2558 001:297 JLINK_SetBPEx(Addr = 0x20000000, Type = 0xFFFFFFF2)  returns 0x0000000D (0000ms, 0681ms total)
T2558 001:297 JLINK_Go() -- CPU_ReadMem(4 bytes @ 0xE0001000) (0001ms, 0682ms total)
T2558 001:298 JLINK_IsHalted()  returns FALSE (0000ms, 0682ms total)
T2558 001:303 JLINK_IsHalted()  returns FALSE (0000ms, 0682ms total)
T2558 001:305 JLINK_IsHalted()  returns FALSE (0000ms, 0682ms total)
T2558 001:307 JLINK_IsHalted()  returns FALSE (0000ms, 0682ms total)
T2558 001:309 JLINK_IsHalted()  returns FALSE (0000ms, 0682ms total)
T2558 001:311 JLINK_IsHalted()  returns FALSE (0000ms, 0682ms total)
T2558 001:314 JLINK_IsHalted()  returns FALSE (0000ms, 0682ms total)
T2558 001:316 JLINK_IsHalted()  returns FALSE (0000ms, 0682ms total)
T2558 001:318 JLINK_IsHalted()  returns FALSE (0000ms, 0682ms total)
T2558 001:320 JLINK_IsHalted()  returns FALSE (0000ms, 0682ms total)
T2558 001:322 JLINK_IsHalted()  returns FALSE (0000ms, 0682ms total)
T2558 001:324 JLINK_IsHalted()  returns FALSE (0000ms, 0682ms total)
T2558 001:326 JLINK_IsHalted()  returns FALSE (0000ms, 0682ms total)
T2558 001:328 JLINK_IsHalted()  returns FALSE (0000ms, 0682ms total)
T2558 001:337 JLINK_IsHalted() -- CPU_ReadMem(2 bytes @ 0x20000000)  returns TRUE (0002ms, 0684ms total)
T2558 001:339 JLINK_ReadReg(R15 (PC))  returns 0x20000000 (0000ms, 0682ms total)
T2558 001:339 JLINK_ClrBPEx(BPHandle = 0x0000000D)  returns 0x00 (0000ms, 0682ms total)
T2558 001:339 JLINK_ReadReg(R0)  returns 0x00000000 (0000ms, 0682ms total)
T2558 001:339 JLINK_WriteMem(0x20000164, 0x0400 Bytes, ...) - Data: 9A FB 03 E0 04 21 33 48 01 F0 97 FB 2E 48 00 78 ... -- CPU_WriteMem(1024 bytes @ 0x20000164)  returns 0x400 (0004ms, 0686ms total)
T2558 001:343 JLINK_WriteReg(R0, 0x08002400)  returns 0x00 (0000ms, 0686ms total)
T2558 001:343 JLINK_WriteReg(R1, 0x00000400)  returns 0x00 (0000ms, 0686ms total)
T2558 001:343 JLINK_WriteReg(R2, 0x20000164)  returns 0x00 (0000ms, 0686ms total)
T2558 001:343 JLINK_WriteReg(R3, 0x00000000)  returns 0x00 (0000ms, 0686ms total)
T2558 001:343 JLINK_WriteReg(R4, 0x00000000)  returns 0x00 (0000ms, 0686ms total)
T2558 001:343 JLINK_WriteReg(R5, 0x00000000)  returns 0x00 (0000ms, 0686ms total)
T2558 001:343 JLINK_WriteReg(R6, 0x00000000)  returns 0x00 (0000ms, 0686ms total)
T2558 001:343 JLINK_WriteReg(R7, 0x00000000)  returns 0x00 (0000ms, 0686ms total)
T2558 001:343 JLINK_WriteReg(R8, 0x00000000)  returns 0x00 (0000ms, 0686ms total)
T2558 001:343 JLINK_WriteReg(R9, 0x20000160)  returns 0x00 (0000ms, 0686ms total)
T2558 001:343 JLINK_WriteReg(R10, 0x00000000)  returns 0x00 (0000ms, 0686ms total)
T2558 001:343 JLINK_WriteReg(R11, 0x00000000)  returns 0x00 (0000ms, 0686ms total)
T2558 001:343 JLINK_WriteReg(R12, 0x00000000)  returns 0x00 (0000ms, 0686ms total)
T2558 001:343 JLINK_WriteReg(R13 (SP), 0x20000800)  returns 0x00 (0000ms, 0686ms total)
T2558 001:343 JLINK_WriteReg(R14, 0x20000001)  returns 0x00 (0000ms, 0686ms total)
T2558 001:343 JLINK_WriteReg(R15 (PC), 0x200000F4)  returns 0x00 (0000ms, 0686ms total)
T2558 001:343 JLINK_WriteReg(XPSR, 0x01000000)  returns 0x00 (0000ms, 0686ms total)
T2558 001:343 JLINK_WriteReg(MSP, 0x20000800)  returns 0x00 (0000ms, 0686ms total)
T2558 001:343 JLINK_WriteReg(PSP, 0x20000800)  returns 0x00 (0000ms, 0686ms total)
T2558 001:343 JLINK_WriteReg(CFBP, 0x00000000)  returns 0x00 (0000ms, 0686ms total)
T2558 001:343 JLINK_SetBPEx(Addr = 0x20000000, Type = 0xFFFFFFF2)  returns 0x0000000E (0000ms, 0686ms total)
T2558 001:343 JLINK_Go() -- CPU_ReadMem(4 bytes @ 0xE0001000) (0001ms, 0687ms total)
T2558 001:344 JLINK_IsHalted()  returns FALSE (0001ms, 0688ms total)
T2558 001:348 JLINK_IsHalted()  returns FALSE (0000ms, 0687ms total)
T2558 001:350 JLINK_IsHalted()  returns FALSE (0000ms, 0687ms total)
T2558 001:352 JLINK_IsHalted()  returns FALSE (0000ms, 0687ms total)
T2558 001:354 JLINK_IsHalted()  returns FALSE (0000ms, 0687ms total)
T2558 001:356 JLINK_IsHalted()  returns FALSE (0001ms, 0688ms total)
T2558 001:363 JLINK_IsHalted()  returns FALSE (0000ms, 0687ms total)
T2558 001:369 JLINK_IsHalted()  returns FALSE (0000ms, 0687ms total)
T2558 001:375 JLINK_IsHalted()  returns FALSE (0000ms, 0687ms total)
T2558 001:377 JLINK_IsHalted() -- CPU_ReadMem(2 bytes @ 0x20000000)  returns TRUE (0002ms, 0689ms total)
T2558 001:379 JLINK_ReadReg(R15 (PC))  returns 0x20000000 (0000ms, 0687ms total)
T2558 001:379 JLINK_ClrBPEx(BPHandle = 0x0000000E)  returns 0x00 (0000ms, 0687ms total)
T2558 001:379 JLINK_ReadReg(R0)  returns 0x00000000 (0000ms, 0687ms total)
T2558 001:379 JLINK_WriteMem(0x20000164, 0x0400 Bytes, ...) - Data: 08 46 01 F0 D4 FB 01 21 02 20 01 F0 D0 FB 01 21 ... -- CPU_WriteMem(1024 bytes @ 0x20000164)  returns 0x400 (0004ms, 0691ms total)
T2558 001:383 JLINK_WriteReg(R0, 0x08002800)  returns 0x00 (0000ms, 0691ms total)
T2558 001:383 JLINK_WriteReg(R1, 0x00000400)  returns 0x00 (0000ms, 0691ms total)
